T2164 7426:198.285   SEGGER J-Link V7.94e Log File
T2164 7426:198.342   DLL Compiled: Jan 15 2024 15:13:38
T2164 7426:198.351   Logging started @ 2024-11-14 17:26
T2164 7426:198.359   Process: C:\Programas-Practicas\Simuladores\Keil\UV4\UV4.exe
T2164 7426:198.367 - 6099.429ms
T2164 7426:198.380 JLINK_SetWarnOutHandler(...)
T2164 7426:198.388 - 0.007ms
T2164 7426:198.398 JLINK_OpenEx(...)
T2164 7426:200.861   Firmware: J-Link OB-nRF5340-NordicSemi compiled Dec  3 2021 15:46:49
T2164 7426:201.807   Firmware: J-Link OB-nRF5340-NordicSemi compiled Dec  3 2021 15:46:49
T2164 7426:232.586   Hardware: V1.00
T2164 7426:232.616   S/N: 1050278182
T2164 7426:232.628   OEM: SEGGER
T2164 7426:232.639   Feature(s): RDI, FlashBP, FlashDL, JFlash, GDB
T2164 7426:233.679   Bootloader: (Could not read)
T2164 7426:234.864   TELNET listener socket opened on port 19021
T2164 7426:243.914   WEBSRV WEBSRV_Init(): Starting webserver thread(s)
T2164 7426:244.108   WEBSRV Webserver running on local port 19080
T2164 7426:244.295   Looking for J-Link GUI Server exe at: C:\Programas-Practicas\Simuladores\Keil\ARM\Segger\JLinkGUIServer.exe
T2164 7426:244.433   Looking for J-Link GUI Server exe at: \JLinkGUIServer.exe
T2164 7426:553.665   Failed to connect to J-Link GUI Server.
T2164 7426:553.735 - 355.334ms returns "O.K."
T2164 7426:553.806 JLINK_GetEmuCaps()
T2164 7426:553.840 - 0.032ms returns 0xB8EA5A33
T2164 7426:553.887 JLINK_TIF_GetAvailable(...)
T2164 7426:554.216 - 0.327ms
T2164 7426:554.299 JLINK_SetErrorOutHandler(...)
T2164 7426:554.331 - 0.031ms
T2164 7426:554.392 JLINK_ExecCommand("ProjectFile = "C:\Users\guest\Downloads\P3_872189-Latorre_Cote_839113-Fernandez_Marin-20241114T145856Z-001\P3_872189-Latorre_Cote_839113-Fernandez_Marin\nrf\keil\JLinkSettings.ini"", ...). 
T2164 7426:560.702 - 6.308ms returns 0x00
T2164 7426:561.125 JLINK_ExecCommand("Device = nRF52840_xxAA", ...). 
T2164 7426:561.689   Device "NRF52840_XXAA" selected.
T2164 7426:562.049 - 0.905ms returns 0x00
T2164 7426:562.081 JLINK_ExecCommand("DisableConnectionTimeout", ...). 
T2164 7426:562.107 - 0.001ms returns 0x01
T2164 7426:562.138 JLINK_GetHardwareVersion()
T2164 7426:562.146 - 0.008ms returns 10000
T2164 7426:562.157 JLINK_GetDLLVersion()
T2164 7426:562.165 - 0.007ms returns 79405
T2164 7426:562.176 JLINK_GetOEMString(...)
T2164 7426:562.187 JLINK_GetFirmwareString(...)
T2164 7426:562.195 - 0.007ms
T2164 7426:562.227 JLINK_GetDLLVersion()
T2164 7426:562.236 - 0.008ms returns 79405
T2164 7426:562.247 JLINK_GetCompileDateTime()
T2164 7426:562.254 - 0.007ms
T2164 7426:562.271 JLINK_GetFirmwareString(...)
T2164 7426:562.279 - 0.008ms
T2164 7426:562.295 JLINK_GetHardwareVersion()
T2164 7426:562.303 - 0.007ms returns 10000
T2164 7426:562.320 JLINK_GetSN()
T2164 7426:562.328 - 0.008ms returns 1050278182
T2164 7426:562.342 JLINK_GetOEMString(...)
T2164 7426:562.382 JLINK_TIF_Select(JLINKARM_TIF_SWD)
T2164 7426:563.140 - 0.757ms returns 0x00
T2164 7426:563.181 JLINK_HasError()
T2164 7426:563.196 JLINK_SetSpeed(5000)
T2164 7426:563.348 - 0.151ms
T2164 7426:563.369 JLINK_GetId()
T2164 7426:563.648   InitTarget() start
T2164 7426:563.666    J-Link Script File: Executing InitTarget()
T2164 7426:566.149   InitTarget() end - Took 2.46ms
T2164 7426:566.879   Found SW-DP with ID 0x2BA01477
T2164 7426:569.383   DPIDR: 0x2BA01477
T2164 7426:569.415   CoreSight SoC-400 or earlier
T2164 7426:569.433   Scanning AP map to find all available APs
T2164 7426:570.378   AP[2]: Stopped AP scan as end of AP map has been reached
T2164 7426:570.402   AP[0]: AHB-AP (IDR: 0x24770011)
T2164 7426:570.418   AP[1]: JTAG-AP (IDR: 0x02880000)
T2164 7426:570.435   Iterating through AP map to find AHB-AP to use
T2164 7426:571.399   AP[0]: Core found
T2164 7426:571.425   AP[0]: AHB-AP ROM base: 0xE00FF000
T2164 7426:571.911   CPUID register: 0x410FC241. Implementer code: 0x41 (ARM)
T2164 7426:571.933   Found Cortex-M4 r0p1, Little endian.
T2164 7426:572.357   -- Max. mem block: 0x0003C628
T2164 7426:572.709   CPU_ReadMem(4 bytes @ 0xE000EDF0)
T2164 7426:573.141   CPU_WriteMem(4 bytes @ 0xE000EDF0)
T2164 7426:573.516   CPU_ReadMem(4 bytes @ 0xE0002000)
T2164 7426:573.889   FPUnit: 6 code (BP) slots and 2 literal slots
T2164 7426:573.906   CPU_ReadMem(4 bytes @ 0xE000EDFC)
T2164 7426:574.269   CPU_WriteMem(4 bytes @ 0xE000EDFC)
T2164 7426:574.682   CPU_ReadMem(4 bytes @ 0xE0001000)
T2164 7426:575.049   CPU_WriteMem(4 bytes @ 0xE0001000)
T2164 7426:575.426   CPU_ReadMem(4 bytes @ 0xE000ED88)
T2164 7426:575.741   CPU_WriteMem(4 bytes @ 0xE000ED88)
T2164 7426:576.072   CPU_ReadMem(4 bytes @ 0xE000ED88)
T2164 7426:576.410   CPU_WriteMem(4 bytes @ 0xE000ED88)
T2164 7426:576.780   CoreSight components:
T2164 7426:576.801   ROMTbl[0] @ E00FF000
T2164 7426:576.814   CPU_ReadMem(64 bytes @ 0xE00FF000)
T2164 7426:577.633   CPU_ReadMem(32 bytes @ 0xE000EFE0)
T2164 7426:578.201   [0][0]: E000E000 CID B105E00D PID 000BB00C SCS-M7
T2164 7426:578.218   CPU_ReadMem(32 bytes @ 0xE0001FE0)
T2164 7426:578.786   [0][1]: E0001000 CID B105E00D PID 003BB002 DWT
T2164 7426:578.803   CPU_ReadMem(32 bytes @ 0xE0002FE0)
T2164 7426:579.360   [0][2]: E0002000 CID B105E00D PID 002BB003 FPB
T2164 7426:579.377   CPU_ReadMem(32 bytes @ 0xE0000FE0)
T2164 7426:579.903   [0][3]: E0000000 CID B105E00D PID 003BB001 ITM
T2164 7426:579.924   CPU_ReadMem(32 bytes @ 0xE0040FE0)
T2164 7426:580.464   [0][4]: E0040000 CID B105900D PID 000BB9A1 TPIU
T2164 7426:580.481   CPU_ReadMem(32 bytes @ 0xE0041FE0)
T2164 7426:580.995   [0][5]: E0041000 CID B105900D PID 000BB925 ETM
T2164 7426:581.224 - 17.854ms returns 0x2BA01477
T2164 7426:581.243 JLINK_GetDLLVersion()
T2164 7426:581.251 - 0.008ms returns 79405
T2164 7426:581.266 JLINK_CORE_GetFound()
T2164 7426:581.275 - 0.008ms returns 0xE0000FF
T2164 7426:581.287 JLINK_GetDebugInfo(0x100 = JLINKARM_ROM_TABLE_ADDR_INDEX)
T2164 7426:581.295   Value=0xE00FF000
T2164 7426:581.306 - 0.020ms returns 0
T2164 7426:581.326 JLINK_GetDebugInfo(0x100 = JLINKARM_ROM_TABLE_ADDR_INDEX)
T2164 7426:581.334   Value=0xE00FF000
T2164 7426:581.346 - 0.020ms returns 0
T2164 7426:581.357 JLINK_GetDebugInfo(0x101 = JLINKARM_DEBUG_INFO_ETM_ADDR_INDEX)
T2164 7426:581.365   Value=0xE0041000
T2164 7426:581.376 - 0.019ms returns 0
T2164 7426:581.388 JLINK_ReadMemEx(0xE0041FD0, 0x20 Bytes, Flags = 0x02000004)
T2164 7426:581.402   CPU_ReadMem(32 bytes @ 0xE0041FD0)
T2164 7426:581.934   Data:  04 00 00 00 00 00 00 00 00 00 00 00 00 00 00 00 ...
T2164 7426:581.950 - 0.562ms returns 32 (0x20)
T2164 7426:581.963 JLINK_GetDebugInfo(0x102 = JLINKARM_DEBUG_INFO_MTB_ADDR_INDEX)
T2164 7426:581.971   Value=0x00000000
T2164 7426:581.982 - 0.019ms returns 0
T2164 7426:581.993 JLINK_GetDebugInfo(0x103 = JLINKARM_DEBUG_INFO_TPIU_ADDR_INDEX)
T2164 7426:582.000   Value=0xE0040000
T2164 7426:582.012 - 0.019ms returns 0
T2164 7426:582.022 JLINK_GetDebugInfo(0x104 = JLINKARM_DEBUG_INFO_ITM_ADDR_INDEX)
T2164 7426:582.030   Value=0xE0000000
T2164 7426:582.041 - 0.019ms returns 0
T2164 7426:582.051 JLINK_GetDebugInfo(0x105 = JLINKARM_DEBUG_INFO_DWT_ADDR_INDEX)
T2164 7426:582.059   Value=0xE0001000
T2164 7426:582.070 - 0.018ms returns 0
T2164 7426:582.080 JLINK_GetDebugInfo(0x106 = JLINKARM_DEBUG_INFO_FPB_ADDR_INDEX)
T2164 7426:582.088   Value=0xE0002000
T2164 7426:582.099 - 0.018ms returns 0
T2164 7426:582.109 JLINK_GetDebugInfo(0x107 = JLINKARM_DEBUG_INFO_NVIC_ADDR_INDEX)
T2164 7426:582.117   Value=0xE000E000
T2164 7426:582.128 - 0.018ms returns 0
T2164 7426:582.139 JLINK_GetDebugInfo(0x10C = JLINKARM_DEBUG_INFO_DBG_ADDR_INDEX)
T2164 7426:582.147   Value=0xE000EDF0
T2164 7426:582.158 - 0.019ms returns 0
T2164 7426:582.168 JLINK_GetDebugInfo(0x01 = Unknown)
T2164 7426:582.176   Value=0x00000001
T2164 7426:582.187 - 0.019ms returns 0
T2164 7426:582.200 JLINK_ReadMemU32(0xE000ED00, 0x1 Items)
T2164 7426:582.210   CPU_ReadMem(4 bytes @ 0xE000ED00)
T2164 7426:582.560   Data:  41 C2 0F 41
T2164 7426:582.576   Debug reg: CPUID
T2164 7426:582.588 - 0.388ms returns 1 (0x1)
T2164 7426:582.600 JLINK_GetDebugInfo(0x10F = JLINKARM_DEBUG_INFO_HAS_CORTEX_M_SECURITY_EXT_INDEX)
T2164 7426:582.611   Value=0x00000000
T2164 7426:582.624 - 0.024ms returns 0
T2164 7426:582.635 JLINK_HasError()
T2164 7426:582.648 JLINK_SetResetType(JLINKARM_CM3_RESET_TYPE_NORMAL)
T2164 7426:582.656 - 0.008ms returns JLINKARM_CM3_RESET_TYPE_NORMAL
T2164 7426:582.666 JLINK_Reset()
T2164 7426:582.678   CPU is running
T2164 7426:582.690   CPU_WriteMem(4 bytes @ 0xE000EDF0)
T2164 7426:583.022   CPU is running
T2164 7426:583.038   CPU_WriteMem(4 bytes @ 0xE000EDFC)
T2164 7426:583.364   Reset: Halt core after reset via DEMCR.VC_CORERESET.
T2164 7426:583.676   Reset: Reset device via AIRCR.SYSRESETREQ.
T2164 7426:583.692   CPU is running
T2164 7426:583.705   CPU_WriteMem(4 bytes @ 0xE000ED0C)
T2164 7426:636.867   CPU_ReadMem(4 bytes @ 0xE000EDF0)
T2164 7426:637.412   CPU_ReadMem(4 bytes @ 0xE000EDF0)
T2164 7426:641.609   CPU_WriteMem(4 bytes @ 0xE000EDFC)
T2164 7426:647.744   CPU_ReadMem(4 bytes @ 0xE000EDF0)
T2164 7426:652.225   CPU_WriteMem(4 bytes @ 0xE0002000)
T2164 7426:652.806   CPU_ReadMem(4 bytes @ 0xE000EDFC)
T2164 7426:653.317   CPU_ReadMem(4 bytes @ 0xE0001000)
T2164 7426:653.906 - 71.238ms
T2164 7426:653.965 JLINK_HasError()
T2164 7426:654.027 JLINK_ReadReg(R15 (PC))
T2164 7426:654.044 - 0.017ms returns 0x00000214
T2164 7426:654.055 JLINK_ReadReg(XPSR)
T2164 7426:654.064 - 0.008ms returns 0x01000000
T2164 7426:654.077 JLINK_Halt()
T2164 7426:654.085 - 0.008ms returns 0x00
T2164 7426:654.096 JLINK_ReadMemU32(0xE000EDF0, 0x1 Items)
T2164 7426:654.110   CPU_ReadMem(4 bytes @ 0xE000EDF0)
T2164 7426:654.607   Data:  03 00 03 00
T2164 7426:654.630   Debug reg: DHCSR
T2164 7426:654.642 - 0.546ms returns 1 (0x1)
T2164 7426:654.661 JLINK_WriteU32_64(0xE000EDF0, 0xA05F0003)
T2164 7426:654.670   Debug reg: DHCSR
T2164 7426:655.595   CPU_WriteMem(4 bytes @ 0xE000EDF0)
T2164 7426:656.001 - 1.340ms returns 0 (0x00000000)
T2164 7426:656.021 JLINK_WriteU32_64(0xE000EDFC, 0x01000000)
T2164 7426:656.030   Debug reg: DEMCR
T2164 7426:656.046   CPU_WriteMem(4 bytes @ 0xE000EDFC)
T2164 7426:656.442 - 0.420ms returns 0 (0x00000000)
T2164 7426:656.499 JLINK_GetHWStatus(...)
T2164 7426:656.661 - 0.161ms returns 0
T2164 7426:656.703 JLINK_GetNumBPUnits(Type = 0xFFFFFF00)
T2164 7426:656.712 - 0.009ms returns 0x06
T2164 7426:656.723 JLINK_GetNumBPUnits(Type = 0xF0)
T2164 7426:656.731 - 0.007ms returns 0x2000
T2164 7426:656.742 JLINK_GetNumWPUnits()
T2164 7426:656.750 - 0.007ms returns 4
T2164 7426:656.774 JLINK_GetSpeed()
T2164 7426:656.782 - 0.008ms returns 2000
T2164 7426:656.801 JLINK_ReadMemU32(0xE000E004, 0x1 Items)
T2164 7426:656.814   CPU_ReadMem(4 bytes @ 0xE000E004)
T2164 7426:657.180   Data:  01 00 00 00
T2164 7426:657.196 - 0.395ms returns 1 (0x1)
T2164 7426:657.209 JLINK_ReadMemU32(0xE000E004, 0x1 Items)
T2164 7426:657.220   CPU_ReadMem(4 bytes @ 0xE000E004)
T2164 7426:657.593   Data:  01 00 00 00
T2164 7426:657.609 - 0.399ms returns 1 (0x1)
T2164 7426:657.623 JLINK_WriteMemEx(0xE0001000, 0x0000001C Bytes, Flags = 0x02000004)
T2164 7426:657.632   Data:  01 00 00 00 00 00 00 00 00 00 00 00 00 00 00 00 ...
T2164 7426:657.648   CPU_WriteMem(28 bytes @ 0xE0001000)
T2164 7426:658.262 - 0.639ms returns 0x1C
T2164 7426:658.301 JLINK_HasError()
T2164 7426:658.312 JLINK_ReadReg(R15 (PC))
T2164 7426:658.322 - 0.009ms returns 0x00000214
T2164 7426:658.332 JLINK_ReadReg(XPSR)
T2164 7426:658.340 - 0.008ms returns 0x01000000
T2164 7426:662.853 JLINK_ReadMemEx(0xE0001004, 0x4 Bytes, Flags = 0x02000000)
T2164 7426:662.870   Data:  00 00 00 00
T2164 7426:662.881   Debug reg: DWT_CYCCNT
T2164 7426:662.892 - 0.039ms returns 4 (0x4)
T2164 7426:735.327 JLINK_HasError()
T2164 7426:735.358 JLINK_SetResetType(JLINKARM_CM3_RESET_TYPE_NORMAL)
T2164 7426:735.367 - 0.008ms returns JLINKARM_CM3_RESET_TYPE_NORMAL
T2164 7426:735.377 JLINK_Reset()
T2164 7426:735.394   CPU_WriteMem(4 bytes @ 0xE000EDF0)
T2164 7426:735.798   CPU_WriteMem(4 bytes @ 0xE000EDFC)
T2164 7426:736.166   Reset: Halt core after reset via DEMCR.VC_CORERESET.
T2164 7426:736.620   Reset: Reset device via AIRCR.SYSRESETREQ.
T2164 7426:736.643   CPU_WriteMem(4 bytes @ 0xE000ED0C)
T2164 7426:790.777   CPU_ReadMem(4 bytes @ 0xE000EDF0)
T2164 7426:791.514   CPU_ReadMem(4 bytes @ 0xE000EDF0)
T2164 7426:792.180   CPU_WriteMem(4 bytes @ 0xE000EDFC)
T2164 7426:799.178   CPU_ReadMem(4 bytes @ 0xE000EDF0)
T2164 7426:803.493   CPU_WriteMem(4 bytes @ 0xE0002000)
T2164 7426:804.105   CPU_ReadMem(4 bytes @ 0xE000EDFC)
T2164 7426:804.692   CPU_ReadMem(4 bytes @ 0xE0001000)
T2164 7426:805.287 - 69.908ms
T2164 7426:805.462 JLINK_HasError()
T2164 7426:805.495 JLINK_ReadReg(R15 (PC))
T2164 7426:805.507 - 0.011ms returns 0x00000214
T2164 7426:805.517 JLINK_ReadReg(XPSR)
T2164 7426:805.525 - 0.007ms returns 0x01000000
T2164 7426:806.124 JLINK_ReadMemEx(0x00000214, 0x3C Bytes, Flags = 0x02000000)
T2164 7426:806.151   CPU_ReadMem(128 bytes @ 0x00000200)
T2164 7426:807.640    -- Updating C cache (128 bytes @ 0x00000200)
T2164 7426:807.670    -- Read from C cache (60 bytes @ 0x00000214)
T2164 7426:807.683   Data:  06 48 80 47 06 48 00 47 FE E7 FE E7 FE E7 FE E7 ...
T2164 7426:807.694 - 1.570ms returns 60 (0x3C)
T2164 7426:957.722 JLINK_ReadMemEx(0x40006100, 0x1C Bytes, Flags = 0x02000004)
T2164 7426:957.760   CPU_ReadMem(28 bytes @ 0x40006100)
T2164 7426:958.490   Data:  00 00 00 00 00 00 00 00 00 00 00 00 00 00 00 00 ...
T2164 7426:958.536 - 0.814ms returns 28 (0x1C)
T2164 7426:958.658 JLINK_ReadMemEx(0x4000611C, 0x4 Bytes, Flags = 0x02000004)
T2164 7426:958.670   CPU_ReadMem(4 bytes @ 0x4000611C)
T2164 7426:959.064   Data:  00 00 00 00
T2164 7426:959.079 - 0.420ms returns 4 (0x4)
T2164 7426:959.092 JLINK_ReadMemEx(0x4000617C, 0x4 Bytes, Flags = 0x02000004)
T2164 7426:959.102   CPU_ReadMem(4 bytes @ 0x4000617C)
T2164 7426:959.495   Data:  00 00 00 00
T2164 7426:959.510 - 0.418ms returns 4 (0x4)
T2164 7426:959.523 JLINK_ReadMemEx(0x40006304, 0x4 Bytes, Flags = 0x02000004)
T2164 7426:959.534   CPU_ReadMem(4 bytes @ 0x40006304)
T2164 7426:959.881   Data:  00 00 00 00
T2164 7426:959.909 - 0.386ms returns 4 (0x4)
T2164 7426:959.922 JLINK_ReadMemEx(0x40006308, 0x4 Bytes, Flags = 0x02000004)
T2164 7426:959.933   CPU_ReadMem(4 bytes @ 0x40006308)
T2164 7426:960.408   Data:  00 00 00 00
T2164 7426:960.439 - 0.516ms returns 4 (0x4)
T2164 7426:960.479 JLINK_ReadMemEx(0x40006510, 0x1C Bytes, Flags = 0x02000004)
T2164 7426:960.503   CPU_ReadMem(28 bytes @ 0x40006510)
T2164 7426:961.087   Data:  00 00 00 00 00 00 00 00 00 00 00 00 00 00 00 00 ...
T2164 7426:961.115 - 0.636ms returns 28 (0x1C)
T2164 7426:961.128 JLINK_ReadMemEx(0x4000652C, 0x4 Bytes, Flags = 0x02000004)
T2164 7426:961.139   CPU_ReadMem(4 bytes @ 0x4000652C)
T2164 7426:961.501   Data:  00 00 00 00
T2164 7426:961.530 - 0.401ms returns 4 (0x4)
T2164 7427:008.463 JLINK_ReadMemEx(0x50000504, 0x20 Bytes, Flags = 0x02000004)
T2164 7427:008.501   CPU_ReadMem(32 bytes @ 0x50000504)
T2164 7427:009.265   Data:  00 00 00 00 00 00 00 00 00 00 00 00 00 00 04 00 ...
T2164 7427:009.296 - 0.833ms returns 32 (0x20)
T2164 7427:009.419 JLINK_ReadMemEx(0x50000524, 0x4 Bytes, Flags = 0x02000004)
T2164 7427:009.431   CPU_ReadMem(4 bytes @ 0x50000524)
T2164 7427:010.031   Data:  00 00 00 00
T2164 7427:010.048 - 0.629ms returns 4 (0x4)
T2164 7427:010.062 JLINK_ReadMemEx(0x50000700, 0x7C Bytes, Flags = 0x02000004)
T2164 7427:010.074   CPU_ReadMem(124 bytes @ 0x50000700)
T2164 7427:011.508   Data:  02 00 00 00 02 00 00 00 02 00 00 00 02 00 00 00 ...
T2164 7427:011.525 - 1.462ms returns 124 (0x7C)
T2164 7427:011.540 JLINK_ReadMemEx(0x5000077C, 0x4 Bytes, Flags = 0x02000004)
T2164 7427:011.551   CPU_ReadMem(4 bytes @ 0x5000077C)
T2164 7427:012.100   Data:  02 00 00 00
T2164 7427:012.117 - 0.577ms returns 4 (0x4)
T2164 7427:061.652 JLINK_ReadMemEx(0x40008140, 0x14 Bytes, Flags = 0x02000004)
T2164 7427:061.689   CPU_ReadMem(20 bytes @ 0x40008140)
T2164 7427:062.164   Data:  00 00 00 00 00 00 00 00 00 00 00 00 00 00 00 00 ...
T2164 7427:062.181 - 0.529ms returns 20 (0x14)
T2164 7427:062.196 JLINK_ReadMemEx(0x40008154, 0x4 Bytes, Flags = 0x02000004)
T2164 7427:062.258   CPU_ReadMem(4 bytes @ 0x40008154)
T2164 7427:062.591   Data:  00 00 00 00
T2164 7427:062.607 - 0.410ms returns 4 (0x4)
T2164 7427:062.621 JLINK_ReadMemEx(0x40008200, 0x4 Bytes, Flags = 0x02000004)
T2164 7427:062.631   CPU_ReadMem(4 bytes @ 0x40008200)
T2164 7427:062.981   Data:  00 00 00 00
T2164 7427:062.996 - 0.375ms returns 4 (0x4)
T2164 7427:063.010 JLINK_ReadMemEx(0x40008304, 0x4 Bytes, Flags = 0x02000004)
T2164 7427:063.020   CPU_ReadMem(4 bytes @ 0x40008304)
T2164 7427:063.358   Data:  00 00 00 00
T2164 7427:063.374 - 0.364ms returns 4 (0x4)
T2164 7427:063.387 JLINK_ReadMemEx(0x40008308, 0x4 Bytes, Flags = 0x02000004)
T2164 7427:063.397   CPU_ReadMem(4 bytes @ 0x40008308)
T2164 7427:063.738   Data:  00 00 00 00
T2164 7427:063.753 - 0.366ms returns 4 (0x4)
T2164 7427:063.766 JLINK_ReadMemEx(0x40008504, 0x4 Bytes, Flags = 0x02000004)
T2164 7427:063.777   CPU_ReadMem(4 bytes @ 0x40008504)
T2164 7427:064.117   Data:  00 00 00 00
T2164 7427:064.133 - 0.366ms returns 4 (0x4)
T2164 7427:064.146 JLINK_ReadMemEx(0x40008508, 0x4 Bytes, Flags = 0x02000004)
T2164 7427:064.157   CPU_ReadMem(4 bytes @ 0x40008508)
T2164 7427:064.489   Data:  00 00 00 00
T2164 7427:064.504 - 0.358ms returns 4 (0x4)
T2164 7427:064.518 JLINK_ReadMemEx(0x40008510, 0x4 Bytes, Flags = 0x02000004)
T2164 7427:064.528   CPU_ReadMem(4 bytes @ 0x40008510)
T2164 7427:064.861   Data:  04 00 00 00
T2164 7427:064.877 - 0.359ms returns 4 (0x4)
T2164 7427:064.890 JLINK_ReadMemEx(0x40008540, 0x14 Bytes, Flags = 0x02000004)
T2164 7427:064.901   CPU_ReadMem(20 bytes @ 0x40008540)
T2164 7427:065.424   Data:  00 00 00 00 00 00 00 00 00 00 00 00 00 00 00 00 ...
T2164 7427:065.440 - 0.549ms returns 20 (0x14)
T2164 7427:065.453 JLINK_ReadMemEx(0x40008554, 0x4 Bytes, Flags = 0x02000004)
T2164 7427:065.464   CPU_ReadMem(4 bytes @ 0x40008554)
T2164 7427:065.806   Data:  00 00 00 00
T2164 7427:065.821 - 0.368ms returns 4 (0x4)
T2164 7429:359.563 JLINK_HasError()
T2164 7429:359.598 JLINK_ReadReg(R0)
T2164 7429:359.971 - 0.371ms returns 0x00000000
T2164 7429:359.988 JLINK_ReadReg(R1)
T2164 7429:359.996 - 0.008ms returns 0x00000000
T2164 7429:360.006 JLINK_ReadReg(R2)
T2164 7429:360.014 - 0.007ms returns 0x00000000
T2164 7429:360.024 JLINK_ReadReg(R3)
T2164 7429:360.032 - 0.007ms returns 0x00000000
T2164 7429:360.041 JLINK_ReadReg(R4)
T2164 7429:360.049 - 0.007ms returns 0x00000000
T2164 7429:360.059 JLINK_ReadReg(R5)
T2164 7429:360.066 - 0.007ms returns 0x00000000
T2164 7429:360.076 JLINK_ReadReg(R6)
T2164 7429:360.083 - 0.007ms returns 0x00000000
T2164 7429:360.093 JLINK_ReadReg(R7)
T2164 7429:360.100 - 0.007ms returns 0x00000000
T2164 7429:360.110 JLINK_ReadReg(R8)
T2164 7429:360.118 - 0.007ms returns 0x00000000
T2164 7429:360.127 JLINK_ReadReg(R9)
T2164 7429:360.135 - 0.007ms returns 0x00000000
T2164 7429:360.145 JLINK_ReadReg(R10)
T2164 7429:360.152 - 0.007ms returns 0x00000000
T2164 7429:360.162 JLINK_ReadReg(R11)
T2164 7429:360.169 - 0.007ms returns 0x00000000
T2164 7429:360.179 JLINK_ReadReg(R12)
T2164 7429:360.187 - 0.007ms returns 0x00000000
T2164 7429:360.196 JLINK_ReadReg(R13 (SP))
T2164 7429:360.204 - 0.007ms returns 0x20004568
T2164 7429:360.214 JLINK_ReadReg(R14)
T2164 7429:360.221 - 0.007ms returns 0xFFFFFFFF
T2164 7429:360.231 JLINK_ReadReg(R15 (PC))
T2164 7429:360.239 - 0.007ms returns 0x00000214
T2164 7429:360.248 JLINK_ReadReg(XPSR)
T2164 7429:360.256 - 0.007ms returns 0x01000000
T2164 7429:360.265 JLINK_ReadReg(MSP)
T2164 7429:360.273 - 0.007ms returns 0x20004568
T2164 7429:360.284 JLINK_ReadReg(PSP)
T2164 7429:360.306 - 0.007ms returns 0x00000000
T2164 7429:360.316 JLINK_ReadReg(CFBP)
T2164 7429:360.324 - 0.007ms returns 0x00000000
T2164 7429:360.347 JLINK_ReadReg(FPSCR)
T2164 7429:365.859 - 5.511ms returns 0x00000000
T2164 7429:365.904 JLINK_ReadReg(FPS0)
T2164 7429:365.930 - 0.025ms returns 0x00000000
T2164 7429:365.958 JLINK_ReadReg(FPS1)
T2164 7429:365.981 - 0.021ms returns 0x00000000
T2164 7429:366.008 JLINK_ReadReg(FPS2)
T2164 7429:366.031 - 0.021ms returns 0x00000000
T2164 7429:366.072 JLINK_ReadReg(FPS3)
T2164 7429:366.094 - 0.022ms returns 0x00000000
T2164 7429:366.122 JLINK_ReadReg(FPS4)
T2164 7429:366.144 - 0.021ms returns 0x00000000
T2164 7429:366.172 JLINK_ReadReg(FPS5)
T2164 7429:366.194 - 0.021ms returns 0x00000000
T2164 7429:366.222 JLINK_ReadReg(FPS6)
T2164 7429:366.244 - 0.021ms returns 0x00000000
T2164 7429:366.272 JLINK_ReadReg(FPS7)
T2164 7429:366.294 - 0.021ms returns 0x00000000
T2164 7429:366.321 JLINK_ReadReg(FPS8)
T2164 7429:366.343 - 0.021ms returns 0x00000000
T2164 7429:366.371 JLINK_ReadReg(FPS9)
T2164 7429:366.393 - 0.021ms returns 0x00000000
T2164 7429:366.421 JLINK_ReadReg(FPS10)
T2164 7429:366.443 - 0.022ms returns 0x00000000
T2164 7429:366.471 JLINK_ReadReg(FPS11)
T2164 7429:366.493 - 0.021ms returns 0x00000000
T2164 7429:366.521 JLINK_ReadReg(FPS12)
T2164 7429:366.543 - 0.021ms returns 0x00000000
T2164 7429:366.571 JLINK_ReadReg(FPS13)
T2164 7429:366.593 - 0.021ms returns 0x00000000
T2164 7429:366.621 JLINK_ReadReg(FPS14)
T2164 7429:366.643 - 0.021ms returns 0x00000000
T2164 7429:366.671 JLINK_ReadReg(FPS15)
T2164 7429:366.693 - 0.021ms returns 0x00000000
T2164 7429:366.721 JLINK_ReadReg(FPS16)
T2164 7429:366.746 - 0.024ms returns 0x00000000
T2164 7429:366.774 JLINK_ReadReg(FPS17)
T2164 7429:366.798 - 0.024ms returns 0x00000000
T2164 7429:366.827 JLINK_ReadReg(FPS18)
T2164 7429:366.849 - 0.022ms returns 0x00000000
T2164 7429:366.877 JLINK_ReadReg(FPS19)
T2164 7429:366.900 - 0.021ms returns 0x00000000
T2164 7429:366.927 JLINK_ReadReg(FPS20)
T2164 7429:366.950 - 0.021ms returns 0x00000000
T2164 7429:367.009 JLINK_ReadReg(FPS21)
T2164 7429:367.049 - 0.038ms returns 0x00000000
T2164 7429:367.080 JLINK_ReadReg(FPS22)
T2164 7429:367.105 - 0.023ms returns 0x00000000
T2164 7429:367.134 JLINK_ReadReg(FPS23)
T2164 7429:367.158 - 0.023ms returns 0x00000000
T2164 7429:367.187 JLINK_ReadReg(FPS24)
T2164 7429:367.210 - 0.022ms returns 0x00000000
T2164 7429:367.239 JLINK_ReadReg(FPS25)
T2164 7429:367.262 - 0.022ms returns 0x00000000
T2164 7429:367.291 JLINK_ReadReg(FPS26)
T2164 7429:367.314 - 0.022ms returns 0x00000000
T2164 7429:367.343 JLINK_ReadReg(FPS27)
T2164 7429:367.366 - 0.022ms returns 0x00000000
T2164 7429:367.396 JLINK_ReadReg(FPS28)
T2164 7429:367.420 - 0.023ms returns 0x00000000
T2164 7429:367.448 JLINK_ReadReg(FPS29)
T2164 7429:367.471 - 0.021ms returns 0x00000000
T2164 7429:367.499 JLINK_ReadReg(FPS30)
T2164 7429:367.522 - 0.023ms returns 0x00000000
T2164 7429:367.550 JLINK_ReadReg(FPS31)
T2164 7429:367.573 - 0.021ms returns 0x00000000
T2C4C 7429:443.492 JLINK_ReadMemEx(0x00000214, 0x2 Bytes, Flags = 0x02000000)
T2C4C 7429:443.533    -- Read from C cache (2 bytes @ 0x00000214)
T2C4C 7429:443.573   Data:  06 48
T2C4C 7429:443.586 - 0.108ms returns 2 (0x2)
T2C4C 7429:443.612 JLINK_HasError()
T2C4C 7429:443.668 JLINK_SetBPEx(Addr = 0x00000A70, Type = 0xFFFFFFF2)
T2C4C 7429:443.693 - 0.025ms returns 0x00000001
T2C4C 7429:443.718 JLINK_HasError()
T2C4C 7429:443.741 JLINK_SetBPEx(Addr = 0x000002FC, Type = 0xFFFFFFF2)
T2C4C 7429:443.750 - 0.008ms returns 0x00000002
T2C4C 7429:443.759 JLINK_HasError()
T2C4C 7429:443.769 JLINK_HasError()
T2C4C 7429:443.809 JLINK_Go()
T2C4C 7429:443.823   CPU_WriteMem(4 bytes @ 0xE0002000)
T2C4C 7429:444.377   CPU_WriteMem(4 bytes @ 0xE0002000)
T2C4C 7429:444.822   CPU_ReadMem(4 bytes @ 0xE0001000)
T2C4C 7429:445.204   CPU_WriteMem(4 bytes @ 0xE0002008)
T2C4C 7429:445.237   CPU_WriteMem(4 bytes @ 0xE000200C)
T2C4C 7429:445.249   CPU_WriteMem(4 bytes @ 0xE0002010)
T2C4C 7429:445.260   CPU_WriteMem(4 bytes @ 0xE0002014)
T2C4C 7429:445.272   CPU_WriteMem(4 bytes @ 0xE0002018)
T2C4C 7429:445.284   CPU_WriteMem(4 bytes @ 0xE000201C)
T2C4C 7429:446.719   CPU_WriteMem(4 bytes @ 0xE0001004)
T2C4C 7429:447.908   Memory map 'after startup completion point' is active
T2C4C 7429:447.929 - 4.120ms
T2C4C 7429:548.278 JLINK_HasError()
T2C4C 7429:548.325 JLINK_IsHalted()
T2C4C 7429:551.705 - 3.379ms returns TRUE
T2C4C 7429:551.727 JLINK_HasError()
T2C4C 7429:551.755 JLINK_Halt()
T2C4C 7429:551.766 - 0.010ms returns 0x00
T2C4C 7429:551.777 JLINK_IsHalted()
T2C4C 7429:551.785 - 0.007ms returns TRUE
T2C4C 7429:551.795 JLINK_IsHalted()
T2C4C 7429:551.803 - 0.007ms returns TRUE
T2C4C 7429:551.826 JLINK_IsHalted()
T2C4C 7429:551.834 - 0.007ms returns TRUE
T2C4C 7429:551.845 JLINK_HasError()
T2C4C 7429:551.856 JLINK_ReadReg(R15 (PC))
T2C4C 7429:551.866 - 0.010ms returns 0x00000A70
T2C4C 7429:551.877 JLINK_ReadReg(XPSR)
T2C4C 7429:551.885 - 0.008ms returns 0x61000000
T2C4C 7429:551.898 JLINK_HasError()
T2C4C 7429:551.912 JLINK_ClrBPEx(BPHandle = 0x00000001)
T2C4C 7429:551.921 - 0.008ms returns 0x00
T2C4C 7429:551.931 JLINK_HasError()
T2C4C 7429:551.942 JLINK_ClrBPEx(BPHandle = 0x00000002)
T2C4C 7429:551.950 - 0.008ms returns 0x00
T2C4C 7429:551.960 JLINK_HasError()
T2C4C 7429:551.970 JLINK_HasError()
T2C4C 7429:551.981 JLINK_ReadMemU32(0xE000ED30, 0x1 Items)
T2C4C 7429:551.994   CPU_ReadMem(4 bytes @ 0xE000ED30)
T2C4C 7429:552.335   Data:  02 00 00 00
T2C4C 7429:552.379 - 0.398ms returns 1 (0x1)
T2C4C 7429:552.392 JLINK_ReadMemU32(0xE0001028, 0x1 Items)
T2C4C 7429:552.417   CPU_ReadMem(4 bytes @ 0xE0001028)
T2C4C 7429:552.726   Data:  00 00 00 00
T2C4C 7429:552.742   Debug reg: DWT_FUNC[0]
T2C4C 7429:552.767 - 0.374ms returns 1 (0x1)
T2C4C 7429:552.779 JLINK_ReadMemU32(0xE0001038, 0x1 Items)
T2C4C 7429:552.790   CPU_ReadMem(4 bytes @ 0xE0001038)
T2C4C 7429:553.114   Data:  00 02 00 00
T2C4C 7429:553.145   Debug reg: DWT_FUNC[1]
T2C4C 7429:553.157 - 0.377ms returns 1 (0x1)
T2C4C 7429:553.170 JLINK_ReadMemU32(0xE0001048, 0x1 Items)
T2C4C 7429:553.183   CPU_ReadMem(4 bytes @ 0xE0001048)
T2C4C 7429:553.564   Data:  00 00 00 00
T2C4C 7429:553.583   Debug reg: DWT_FUNC[2]
T2C4C 7429:553.595 - 0.424ms returns 1 (0x1)
T2C4C 7429:553.609 JLINK_ReadMemU32(0xE0001058, 0x1 Items)
T2C4C 7429:553.635   CPU_ReadMem(4 bytes @ 0xE0001058)
T2C4C 7429:553.950   Data:  00 00 00 00
T2C4C 7429:553.966   Debug reg: DWT_FUNC[3]
T2C4C 7429:553.979 - 0.370ms returns 1 (0x1)
T2C4C 7429:554.056 JLINK_HasError()
T2C4C 7429:554.069 JLINK_ReadReg(R0)
T2C4C 7429:554.079 - 0.009ms returns 0x00000A71
T2C4C 7429:554.090 JLINK_ReadReg(R1)
T2C4C 7429:554.098 - 0.008ms returns 0x20004568
T2C4C 7429:554.108 JLINK_ReadReg(R2)
T2C4C 7429:554.117 - 0.008ms returns 0x00000000
T2C4C 7429:554.127 JLINK_ReadReg(R3)
T2C4C 7429:554.135 - 0.008ms returns 0x00000685
T2C4C 7429:554.145 JLINK_ReadReg(R4)
T2C4C 7429:554.154 - 0.008ms returns 0x00000D08
T2C4C 7429:554.164 JLINK_ReadReg(R5)
T2C4C 7429:554.172 - 0.008ms returns 0x00000D08
T2C4C 7429:554.182 JLINK_ReadReg(R6)
T2C4C 7429:554.191 - 0.008ms returns 0x00000000
T2C4C 7429:554.201 JLINK_ReadReg(R7)
T2C4C 7429:554.209 - 0.008ms returns 0x00000000
T2C4C 7429:554.220 JLINK_ReadReg(R8)
T2C4C 7429:554.229 - 0.009ms returns 0x00000000
T2C4C 7429:554.239 JLINK_ReadReg(R9)
T2C4C 7429:554.247 - 0.007ms returns 0x00000000
T2C4C 7429:554.258 JLINK_ReadReg(R10)
T2C4C 7429:554.266 - 0.007ms returns 0x00000000
T2C4C 7429:554.276 JLINK_ReadReg(R11)
T2C4C 7429:554.284 - 0.008ms returns 0x00000000
T2C4C 7429:554.294 JLINK_ReadReg(R12)
T2C4C 7429:554.302 - 0.007ms returns 0x4000C570
T2C4C 7429:554.312 JLINK_ReadReg(R13 (SP))
T2C4C 7429:554.321 - 0.008ms returns 0x20004568
T2C4C 7429:554.331 JLINK_ReadReg(R14)
T2C4C 7429:554.339 - 0.007ms returns 0x000002F5
T2C4C 7429:554.350 JLINK_ReadReg(R15 (PC))
T2C4C 7429:554.358 - 0.008ms returns 0x00000A70
T2C4C 7429:554.368 JLINK_ReadReg(XPSR)
T2C4C 7429:554.376 - 0.008ms returns 0x61000000
T2C4C 7429:554.386 JLINK_ReadReg(MSP)
T2C4C 7429:554.395 - 0.008ms returns 0x20004568
T2C4C 7429:554.405 JLINK_ReadReg(PSP)
T2C4C 7429:554.413 - 0.007ms returns 0x00000000
T2C4C 7429:554.423 JLINK_ReadReg(CFBP)
T2C4C 7429:554.431 - 0.007ms returns 0x00000000
T2C4C 7429:554.441 JLINK_ReadReg(FPSCR)
T2C4C 7429:559.730 - 5.288ms returns 0x00000000
T2C4C 7429:559.766 JLINK_ReadReg(FPS0)
T2C4C 7429:559.789 - 0.023ms returns 0x00000000
T2C4C 7429:559.802 JLINK_ReadReg(FPS1)
T2C4C 7429:559.813 - 0.011ms returns 0x00000000
T2C4C 7429:559.841 JLINK_ReadReg(FPS2)
T2C4C 7429:559.850 - 0.008ms returns 0x00000000
T2C4C 7429:559.862 JLINK_ReadReg(FPS3)
T2C4C 7429:559.885 - 0.022ms returns 0x00000000
T2C4C 7429:559.897 JLINK_ReadReg(FPS4)
T2C4C 7429:559.905 - 0.008ms returns 0x00000000
T2C4C 7429:559.917 JLINK_ReadReg(FPS5)
T2C4C 7429:559.925 - 0.008ms returns 0x00000000
T2C4C 7429:559.937 JLINK_ReadReg(FPS6)
T2C4C 7429:559.960 - 0.022ms returns 0x00000000
T2C4C 7429:559.972 JLINK_ReadReg(FPS7)
T2C4C 7429:559.980 - 0.008ms returns 0x00000000
T2C4C 7429:560.006 JLINK_ReadReg(FPS8)
T2C4C 7429:560.028 - 0.021ms returns 0x00000000
T2C4C 7429:560.040 JLINK_ReadReg(FPS9)
T2C4C 7429:560.061 - 0.021ms returns 0x00000000
T2C4C 7429:560.073 JLINK_ReadReg(FPS10)
T2C4C 7429:560.081 - 0.008ms returns 0x00000000
T2C4C 7429:560.093 JLINK_ReadReg(FPS11)
T2C4C 7429:560.102 - 0.008ms returns 0x00000000
T2C4C 7429:560.114 JLINK_ReadReg(FPS12)
T2C4C 7429:560.135 - 0.021ms returns 0x00000000
T2C4C 7429:560.147 JLINK_ReadReg(FPS13)
T2C4C 7429:560.155 - 0.008ms returns 0x00000000
T2C4C 7429:560.181 JLINK_ReadReg(FPS14)
T2C4C 7429:560.189 - 0.007ms returns 0x00000000
T2C4C 7429:560.201 JLINK_ReadReg(FPS15)
T2C4C 7429:560.210 - 0.008ms returns 0x00000000
T2C4C 7429:560.246 JLINK_ReadReg(FPS16)
T2C4C 7429:560.254 - 0.008ms returns 0x00000000
T2C4C 7429:560.266 JLINK_ReadReg(FPS17)
T2C4C 7429:560.288 - 0.021ms returns 0x00000000
T2C4C 7429:560.313 JLINK_ReadReg(FPS18)
T2C4C 7429:560.321 - 0.007ms returns 0x00000000
T2C4C 7429:560.333 JLINK_ReadReg(FPS19)
T2C4C 7429:560.356 - 0.022ms returns 0x00000000
T2C4C 7429:560.368 JLINK_ReadReg(FPS20)
T2C4C 7429:560.376 - 0.008ms returns 0x00000000
T2C4C 7429:560.388 JLINK_ReadReg(FPS21)
T2C4C 7429:560.410 - 0.021ms returns 0x00000000
T2C4C 7429:560.436 JLINK_ReadReg(FPS22)
T2C4C 7429:560.444 - 0.008ms returns 0x00000000
T2C4C 7429:560.456 JLINK_ReadReg(FPS23)
T2C4C 7429:560.464 - 0.007ms returns 0x00000000
T2C4C 7429:560.476 JLINK_ReadReg(FPS24)
T2C4C 7429:560.484 - 0.007ms returns 0x00000000
T2C4C 7429:560.496 JLINK_ReadReg(FPS25)
T2C4C 7429:560.505 - 0.008ms returns 0x00000000
T2C4C 7429:560.517 JLINK_ReadReg(FPS26)
T2C4C 7429:560.525 - 0.008ms returns 0x00000000
T2C4C 7429:560.537 JLINK_ReadReg(FPS27)
T2C4C 7429:560.545 - 0.008ms returns 0x00000000
T2C4C 7429:560.557 JLINK_ReadReg(FPS28)
T2C4C 7429:560.579 - 0.021ms returns 0x00000000
T2C4C 7429:560.591 JLINK_ReadReg(FPS29)
T2C4C 7429:560.599 - 0.007ms returns 0x00000000
T2C4C 7429:560.611 JLINK_ReadReg(FPS30)
T2C4C 7429:560.619 - 0.008ms returns 0x00000000
T2C4C 7429:560.631 JLINK_ReadReg(FPS31)
T2C4C 7429:560.654 - 0.022ms returns 0x00000000
T2164 7429:561.029 JLINK_ReadMemEx(0x00000000, 0x4 Bytes, Flags = 0x02000000)
T2164 7429:561.053   CPU_ReadMem(64 bytes @ 0x00000000)
T2164 7429:561.834    -- Updating C cache (64 bytes @ 0x00000000)
T2164 7429:561.851    -- Read from C cache (4 bytes @ 0x00000000)
T2164 7429:561.877   Data:  68 45 00 20
T2164 7429:561.889 - 0.859ms returns 4 (0x4)
T2164 7429:565.663 JLINK_ReadMemEx(0x40006100, 0x1C Bytes, Flags = 0x02000004)
T2164 7429:565.693   CPU_ReadMem(28 bytes @ 0x40006100)
T2164 7429:566.261   Data:  00 00 00 00 00 00 00 00 00 00 00 00 00 00 00 00 ...
T2164 7429:566.293 - 0.629ms returns 28 (0x1C)
T2164 7429:566.309 JLINK_ReadMemEx(0x4000611C, 0x4 Bytes, Flags = 0x02000004)
T2164 7429:566.322   CPU_ReadMem(4 bytes @ 0x4000611C)
T2164 7429:566.694   Data:  00 00 00 00
T2164 7429:566.722 - 0.413ms returns 4 (0x4)
T2164 7429:566.750 JLINK_ReadMemEx(0x4000617C, 0x4 Bytes, Flags = 0x02000004)
T2164 7429:566.763   CPU_ReadMem(4 bytes @ 0x4000617C)
T2164 7429:567.218   Data:  00 00 00 00
T2164 7429:567.268 - 0.517ms returns 4 (0x4)
T2164 7429:567.283 JLINK_ReadMemEx(0x40006304, 0x4 Bytes, Flags = 0x02000004)
T2164 7429:567.295   CPU_ReadMem(4 bytes @ 0x40006304)
T2164 7429:567.732   Data:  00 00 00 00
T2164 7429:567.784 - 0.501ms returns 4 (0x4)
T2164 7429:567.799 JLINK_ReadMemEx(0x40006308, 0x4 Bytes, Flags = 0x02000004)
T2164 7429:567.864   CPU_ReadMem(4 bytes @ 0x40006308)
T2164 7429:568.255   Data:  00 00 00 00
T2164 7429:568.301 - 0.502ms returns 4 (0x4)
T2164 7429:568.330 JLINK_ReadMemEx(0x40006510, 0x1C Bytes, Flags = 0x02000004)
T2164 7429:568.355   CPU_ReadMem(28 bytes @ 0x40006510)
T2164 7429:568.872   Data:  00 00 00 00 00 00 00 00 00 00 00 00 00 00 00 00 ...
T2164 7429:568.901 - 0.570ms returns 28 (0x1C)
T2164 7429:568.944 JLINK_ReadMemEx(0x4000652C, 0x4 Bytes, Flags = 0x02000004)
T2164 7429:568.955   CPU_ReadMem(4 bytes @ 0x4000652C)
T2164 7429:569.358   Data:  00 00 00 00
T2164 7429:569.390 - 0.446ms returns 4 (0x4)
T2164 7429:569.839 JLINK_ReadMemEx(0x40008140, 0x14 Bytes, Flags = 0x02000004)
T2164 7429:569.854   CPU_ReadMem(20 bytes @ 0x40008140)
T2164 7429:570.387   Data:  00 00 00 00 00 00 00 00 00 00 00 00 00 00 00 00 ...
T2164 7429:570.418 - 0.578ms returns 20 (0x14)
T2164 7429:570.432 JLINK_ReadMemEx(0x40008154, 0x4 Bytes, Flags = 0x02000004)
T2164 7429:570.443   CPU_ReadMem(4 bytes @ 0x40008154)
T2164 7429:570.805   Data:  00 00 00 00
T2164 7429:570.847 - 0.415ms returns 4 (0x4)
T2164 7429:570.861 JLINK_ReadMemEx(0x40008200, 0x4 Bytes, Flags = 0x02000004)
T2164 7429:570.872   CPU_ReadMem(4 bytes @ 0x40008200)
T2164 7429:571.238   Data:  00 00 00 00
T2164 7429:571.254 - 0.393ms returns 4 (0x4)
T2164 7429:571.268 JLINK_ReadMemEx(0x40008304, 0x4 Bytes, Flags = 0x02000004)
T2164 7429:571.280   CPU_ReadMem(4 bytes @ 0x40008304)
T2164 7429:571.629   Data:  00 00 00 00
T2164 7429:571.645 - 0.376ms returns 4 (0x4)
T2164 7429:571.659 JLINK_ReadMemEx(0x40008308, 0x4 Bytes, Flags = 0x02000004)
T2164 7429:571.670   CPU_ReadMem(4 bytes @ 0x40008308)
T2164 7429:571.997   Data:  00 00 00 00
T2164 7429:572.028 - 0.369ms returns 4 (0x4)
T2164 7429:572.042 JLINK_ReadMemEx(0x40008504, 0x4 Bytes, Flags = 0x02000004)
T2164 7429:572.066   CPU_ReadMem(4 bytes @ 0x40008504)
T2164 7429:572.383   Data:  00 00 00 00
T2164 7429:572.413 - 0.370ms returns 4 (0x4)
T2164 7429:572.426 JLINK_ReadMemEx(0x40008508, 0x4 Bytes, Flags = 0x02000004)
T2164 7429:572.438   CPU_ReadMem(4 bytes @ 0x40008508)
T2164 7429:572.801   Data:  00 00 00 00
T2164 7429:572.820 - 0.393ms returns 4 (0x4)
T2164 7429:572.835 JLINK_ReadMemEx(0x40008510, 0x4 Bytes, Flags = 0x02000004)
T2164 7429:572.847   CPU_ReadMem(4 bytes @ 0x40008510)
T2164 7429:573.177   Data:  04 00 00 00
T2164 7429:573.194 - 0.359ms returns 4 (0x4)
T2164 7429:573.221 JLINK_ReadMemEx(0x40008540, 0x14 Bytes, Flags = 0x02000004)
T2164 7429:573.232   CPU_ReadMem(20 bytes @ 0x40008540)
T2164 7429:573.728   Data:  00 00 00 00 00 00 00 00 00 00 00 00 00 00 00 00 ...
T2164 7429:573.746 - 0.524ms returns 20 (0x14)
T2164 7429:573.774 JLINK_ReadMemEx(0x40008554, 0x4 Bytes, Flags = 0x02000004)
T2164 7429:573.787   CPU_ReadMem(4 bytes @ 0x40008554)
T2164 7429:574.135   Data:  00 00 00 00
T2164 7429:574.154 - 0.379ms returns 4 (0x4)
T2164 7429:574.523 JLINK_ReadMemEx(0x50000504, 0x20 Bytes, Flags = 0x02000004)
T2164 7429:574.538   CPU_ReadMem(32 bytes @ 0x50000504)
T2164 7429:575.070   Data:  00 00 00 00 00 00 00 00 00 00 00 00 00 00 04 00 ...
T2164 7429:575.086 - 0.563ms returns 32 (0x20)
T2164 7429:575.114 JLINK_ReadMemEx(0x50000524, 0x4 Bytes, Flags = 0x02000004)
T2164 7429:575.125   CPU_ReadMem(4 bytes @ 0x50000524)
T2164 7429:575.519   Data:  00 00 00 00
T2164 7429:575.537 - 0.423ms returns 4 (0x4)
T2164 7429:575.552 JLINK_ReadMemEx(0x50000700, 0x7C Bytes, Flags = 0x02000004)
T2164 7429:575.565   CPU_ReadMem(124 bytes @ 0x50000700)
T2164 7429:576.836   Data:  02 00 00 00 02 00 00 00 02 00 00 00 02 00 00 00 ...
T2164 7429:576.854 - 1.302ms returns 124 (0x7C)
T2164 7429:576.884 JLINK_ReadMemEx(0x5000077C, 0x4 Bytes, Flags = 0x02000004)
T2164 7429:576.897   CPU_ReadMem(4 bytes @ 0x5000077C)
T2164 7429:577.236   Data:  02 00 00 00
T2164 7429:577.266 - 0.382ms returns 4 (0x4)
T2C4C 7431:128.034 JLINK_ReadMemEx(0x00000A70, 0x2 Bytes, Flags = 0x02000000)
T2C4C 7431:128.132   CPU_ReadMem(64 bytes @ 0x00000A40)
T2C4C 7431:129.182    -- Updating C cache (64 bytes @ 0x00000A40)
T2C4C 7431:129.266    -- Read from C cache (2 bytes @ 0x00000A70)
T2C4C 7431:129.311   Data:  70 B5
T2C4C 7431:129.355 - 1.322ms returns 2 (0x2)
T2C4C 7431:129.403 JLINK_HasError()
T2C4C 7431:129.445 JLINK_SetBPEx(Addr = 0x000002FC, Type = 0xFFFFFFF2)
T2C4C 7431:129.482 - 0.037ms returns 0x00000003
T2C4C 7431:129.520 JLINK_HasError()
T2C4C 7431:129.557 JLINK_HasError()
T2C4C 7431:129.601 JLINK_Go()
T2C4C 7431:130.156   CPU_WriteMem(4 bytes @ 0xE0002000)
T2C4C 7431:130.785   CPU_ReadMem(4 bytes @ 0xE0001000)
T2C4C 7431:131.450   CPU_WriteMem(4 bytes @ 0xE0002008)
T2C4C 7431:131.518   CPU_WriteMem(4 bytes @ 0xE000200C)
T2C4C 7431:132.862 - 3.260ms
T2C4C 7431:233.228 JLINK_HasError()
T2C4C 7431:233.319 JLINK_IsHalted()
T2C4C 7431:233.873 - 0.552ms returns FALSE
T2C4C 7431:334.389 JLINK_HasError()
T2C4C 7431:334.471 JLINK_IsHalted()
T2C4C 7431:335.113 - 0.639ms returns FALSE
T2C4C 7431:436.077 JLINK_HasError()
T2C4C 7431:436.136 JLINK_IsHalted()
T2C4C 7431:436.653 - 0.515ms returns FALSE
T2C4C 7431:536.919 JLINK_HasError()
T2C4C 7431:536.979 JLINK_IsHalted()
T2C4C 7431:537.594 - 0.613ms returns FALSE
T2C4C 7431:638.044 JLINK_HasError()
T2C4C 7431:638.127 JLINK_IsHalted()
T2C4C 7431:638.755 - 0.626ms returns FALSE
T2C4C 7431:739.624 JLINK_HasError()
T2C4C 7431:739.681 JLINK_HasError()
T2C4C 7431:739.693 JLINK_ReadMemU32(0xE0001004, 0x1 Items)
T2C4C 7431:739.714   CPU_ReadMem(4 bytes @ 0xE0001004)
T2C4C 7431:740.081   Data:  B3 5C 53 02
T2C4C 7431:740.111   Debug reg: DWT_CYCCNT
T2C4C 7431:740.122 - 0.429ms returns 1 (0x1)
T2164 7431:740.199 JLINK_ReadMemEx(0x40006100, 0x1C Bytes, Flags = 0x02000004)
T2164 7431:740.220   CPU_ReadMem(28 bytes @ 0x40006100)
T2164 7431:740.793   Data:  00 00 00 00 01 00 00 00 00 00 00 00 00 00 00 00 ...
T2164 7431:740.822 - 0.623ms returns 28 (0x1C)
T2164 7431:740.836 JLINK_ReadMemEx(0x4000611C, 0x4 Bytes, Flags = 0x02000004)
T2164 7431:740.847   CPU_ReadMem(4 bytes @ 0x4000611C)
T2164 7431:741.197   Data:  00 00 00 00
T2164 7431:741.242 - 0.406ms returns 4 (0x4)
T2164 7431:741.257 JLINK_ReadMemEx(0x4000617C, 0x4 Bytes, Flags = 0x02000004)
T2164 7431:741.268   CPU_ReadMem(4 bytes @ 0x4000617C)
T2164 7431:741.655   Data:  00 00 00 00
T2164 7431:741.672 - 0.415ms returns 4 (0x4)
T2164 7431:741.686 JLINK_ReadMemEx(0x40006304, 0x4 Bytes, Flags = 0x02000004)
T2164 7431:741.697   CPU_ReadMem(4 bytes @ 0x40006304)
T2164 7431:742.033   Data:  0F 00 00 00
T2164 7431:742.049 - 0.363ms returns 4 (0x4)
T2164 7431:742.063 JLINK_ReadMemEx(0x40006308, 0x4 Bytes, Flags = 0x02000004)
T2164 7431:742.074   CPU_ReadMem(4 bytes @ 0x40006308)
T2164 7431:742.421   Data:  0F 00 00 00
T2164 7431:742.449 - 0.386ms returns 4 (0x4)
T2164 7431:742.463 JLINK_ReadMemEx(0x40006510, 0x1C Bytes, Flags = 0x02000004)
T2164 7431:742.473   CPU_ReadMem(28 bytes @ 0x40006510)
T2164 7431:743.018   Data:  01 0B 03 00 01 0C 03 00 01 18 03 00 01 19 03 00 ...
T2164 7431:743.046 - 0.583ms returns 28 (0x1C)
T2164 7431:743.060 JLINK_ReadMemEx(0x4000652C, 0x4 Bytes, Flags = 0x02000004)
T2164 7431:743.070   CPU_ReadMem(4 bytes @ 0x4000652C)
T2164 7431:743.483   Data:  00 00 00 00
T2164 7431:743.512 - 0.452ms returns 4 (0x4)
T2164 7431:752.936 JLINK_ReadMemEx(0x40008140, 0x14 Bytes, Flags = 0x02000004)
T2164 7431:752.972   CPU_ReadMem(20 bytes @ 0x40008140)
T2164 7431:753.705   Data:  00 00 00 00 00 00 00 00 00 00 00 00 00 00 00 00 ...
T2164 7431:753.735 - 0.799ms returns 20 (0x14)
T2164 7431:753.755 JLINK_ReadMemEx(0x40008154, 0x4 Bytes, Flags = 0x02000004)
T2164 7431:753.771   CPU_ReadMem(4 bytes @ 0x40008154)
T2164 7431:754.336   Data:  00 00 00 00
T2164 7431:754.367 - 0.612ms returns 4 (0x4)
T2164 7431:754.387 JLINK_ReadMemEx(0x40008200, 0x4 Bytes, Flags = 0x02000004)
T2164 7431:754.402   CPU_ReadMem(4 bytes @ 0x40008200)
T2164 7431:754.968   Data:  01 00 00 00
T2164 7431:755.000 - 0.612ms returns 4 (0x4)
T2164 7431:755.020 JLINK_ReadMemEx(0x40008304, 0x4 Bytes, Flags = 0x02000004)
T2164 7431:755.035   CPU_ReadMem(4 bytes @ 0x40008304)
T2164 7431:755.556   Data:  00 00 01 00
T2164 7431:755.579 - 0.559ms returns 4 (0x4)
T2164 7431:755.595 JLINK_ReadMemEx(0x40008308, 0x4 Bytes, Flags = 0x02000004)
T2164 7431:755.610   CPU_ReadMem(4 bytes @ 0x40008308)
T2164 7431:756.240   Data:  00 00 01 00
T2164 7431:756.271 - 0.675ms returns 4 (0x4)
T2164 7431:756.291 JLINK_ReadMemEx(0x40008504, 0x4 Bytes, Flags = 0x02000004)
T2164 7431:756.306   CPU_ReadMem(4 bytes @ 0x40008504)
T2164 7431:756.869   Data:  00 00 00 00
T2164 7431:756.900 - 0.608ms returns 4 (0x4)
T2164 7431:756.920 JLINK_ReadMemEx(0x40008508, 0x4 Bytes, Flags = 0x02000004)
T2164 7431:756.935   CPU_ReadMem(4 bytes @ 0x40008508)
T2164 7431:757.565   Data:  03 00 00 00
T2164 7431:757.596 - 0.676ms returns 4 (0x4)
T2164 7431:757.616 JLINK_ReadMemEx(0x40008510, 0x4 Bytes, Flags = 0x02000004)
T2164 7431:757.631   CPU_ReadMem(4 bytes @ 0x40008510)
T2164 7431:758.069   Data:  00 00 00 00
T2164 7431:758.091 - 0.475ms returns 4 (0x4)
T2164 7431:758.107 JLINK_ReadMemEx(0x40008540, 0x14 Bytes, Flags = 0x02000004)
T2164 7431:758.120   CPU_ReadMem(20 bytes @ 0x40008540)
T2164 7431:758.846   Data:  FE FF FF FF 00 00 00 00 00 00 00 00 00 00 00 00 ...
T2164 7431:758.876 - 0.769ms returns 20 (0x14)
T2164 7431:758.896 JLINK_ReadMemEx(0x40008554, 0x4 Bytes, Flags = 0x02000004)
T2164 7431:758.911   CPU_ReadMem(4 bytes @ 0x40008554)
T2164 7431:759.411   Data:  00 00 00 00
T2164 7431:759.431 - 0.535ms returns 4 (0x4)
T2164 7431:760.050 JLINK_ReadMemEx(0x50000504, 0x20 Bytes, Flags = 0x02000004)
T2164 7431:760.067   CPU_ReadMem(32 bytes @ 0x50000504)
T2164 7431:760.888   Data:  00 40 01 00 00 40 01 00 00 40 01 00 00 58 05 03 ...
T2164 7431:760.905 - 0.855ms returns 32 (0x20)
T2164 7431:760.919 JLINK_ReadMemEx(0x50000524, 0x4 Bytes, Flags = 0x02000004)
T2164 7431:760.931   CPU_ReadMem(4 bytes @ 0x50000524)
T2164 7431:761.515   Data:  00 00 00 00
T2164 7431:761.532 - 0.612ms returns 4 (0x4)
T2164 7431:761.546 JLINK_ReadMemEx(0x50000700, 0x7C Bytes, Flags = 0x02000004)
T2164 7431:761.557   CPU_ReadMem(124 bytes @ 0x50000700)
T2164 7431:763.034   Data:  02 00 00 00 02 00 00 00 02 00 00 00 02 00 00 00 ...
T2164 7431:763.051 - 1.504ms returns 124 (0x7C)
T2164 7431:763.065 JLINK_ReadMemEx(0x5000077C, 0x4 Bytes, Flags = 0x02000004)
T2164 7431:763.076   CPU_ReadMem(4 bytes @ 0x5000077C)
T2164 7431:763.627   Data:  02 00 00 00
T2164 7431:763.644 - 0.579ms returns 4 (0x4)
T2C4C 7431:766.872 JLINK_IsHalted()
T2C4C 7431:767.360 - 0.487ms returns FALSE
T2C4C 7431:867.664 JLINK_HasError()
T2C4C 7431:867.746 JLINK_IsHalted()
T2C4C 7431:868.409 - 0.660ms returns FALSE
T2C4C 7431:969.058 JLINK_HasError()
T2C4C 7431:969.090 JLINK_IsHalted()
T2C4C 7431:969.585 - 0.494ms returns FALSE
T2C4C 7432:070.351 JLINK_HasError()
T2C4C 7432:070.391 JLINK_IsHalted()
T2C4C 7432:070.961 - 0.568ms returns FALSE
T2C4C 7432:171.379 JLINK_HasError()
T2C4C 7432:171.462 JLINK_IsHalted()
T2C4C 7432:172.133 - 0.668ms returns FALSE
T2C4C 7432:272.928 JLINK_HasError()
T2C4C 7432:272.971 JLINK_HasError()
T2C4C 7432:272.983 JLINK_ReadMemU32(0xE0001004, 0x1 Items)
T2C4C 7432:273.000   Data:  B3 5C 53 02
T2C4C 7432:273.013   Debug reg: DWT_CYCCNT
T2C4C 7432:273.024 - 0.041ms returns 1 (0x1)
T2164 7432:273.131 JLINK_ReadMemEx(0x40006100, 0x1C Bytes, Flags = 0x02000004)
T2164 7432:273.153   CPU_ReadMem(28 bytes @ 0x40006100)
T2164 7432:273.762   Data:  00 00 00 00 01 00 00 00 00 00 00 00 00 00 00 00 ...
T2164 7432:273.804 - 0.672ms returns 28 (0x1C)
T2164 7432:273.818 JLINK_ReadMemEx(0x4000611C, 0x4 Bytes, Flags = 0x02000004)
T2164 7432:273.829   CPU_ReadMem(4 bytes @ 0x4000611C)
T2164 7432:274.219   Data:  00 00 00 00
T2164 7432:274.249 - 0.431ms returns 4 (0x4)
T2164 7432:274.289 JLINK_ReadMemEx(0x4000617C, 0x4 Bytes, Flags = 0x02000004)
T2164 7432:274.312   CPU_ReadMem(4 bytes @ 0x4000617C)
T2164 7432:274.770   Data:  00 00 00 00
T2164 7432:274.799 - 0.510ms returns 4 (0x4)
T2164 7432:274.812 JLINK_ReadMemEx(0x40006304, 0x4 Bytes, Flags = 0x02000004)
T2164 7432:274.822   CPU_ReadMem(4 bytes @ 0x40006304)
T2164 7432:275.237   Data:  0F 00 00 00
T2164 7432:275.253 - 0.441ms returns 4 (0x4)
T2164 7432:275.267 JLINK_ReadMemEx(0x40006308, 0x4 Bytes, Flags = 0x02000004)
T2164 7432:275.291   CPU_ReadMem(4 bytes @ 0x40006308)
T2164 7432:275.683   Data:  0F 00 00 00
T2164 7432:275.730 - 0.462ms returns 4 (0x4)
T2164 7432:275.758 JLINK_ReadMemEx(0x40006510, 0x1C Bytes, Flags = 0x02000004)
T2164 7432:275.783   CPU_ReadMem(28 bytes @ 0x40006510)
T2164 7432:276.351   Data:  01 0B 03 00 01 0C 03 00 01 18 03 00 01 19 03 00 ...
T2164 7432:276.367 - 0.608ms returns 28 (0x1C)
T2164 7432:276.380 JLINK_ReadMemEx(0x4000652C, 0x4 Bytes, Flags = 0x02000004)
T2164 7432:276.391   CPU_ReadMem(4 bytes @ 0x4000652C)
T2164 7432:276.722   Data:  00 00 00 00
T2164 7432:276.738 - 0.357ms returns 4 (0x4)
T2164 7432:277.135 JLINK_ReadMemEx(0x40008140, 0x14 Bytes, Flags = 0x02000004)
T2164 7432:277.149   CPU_ReadMem(20 bytes @ 0x40008140)
T2164 7432:277.596   Data:  00 00 00 00 00 00 00 00 00 00 00 00 00 00 00 00 ...
T2164 7432:277.612 - 0.477ms returns 20 (0x14)
T2164 7432:277.626 JLINK_ReadMemEx(0x40008154, 0x4 Bytes, Flags = 0x02000004)
T2164 7432:277.637   CPU_ReadMem(4 bytes @ 0x40008154)
T2164 7432:277.965   Data:  00 00 00 00
T2164 7432:277.980 - 0.354ms returns 4 (0x4)
T2164 7432:277.994 JLINK_ReadMemEx(0x40008200, 0x4 Bytes, Flags = 0x02000004)
T2164 7432:278.005   CPU_ReadMem(4 bytes @ 0x40008200)
T2164 7432:278.332   Data:  01 00 00 00
T2164 7432:278.348 - 0.354ms returns 4 (0x4)
T2164 7432:278.362 JLINK_ReadMemEx(0x40008304, 0x4 Bytes, Flags = 0x02000004)
T2164 7432:278.373   CPU_ReadMem(4 bytes @ 0x40008304)
T2164 7432:278.684   Data:  00 00 01 00
T2164 7432:278.700 - 0.338ms returns 4 (0x4)
T2164 7432:278.713 JLINK_ReadMemEx(0x40008308, 0x4 Bytes, Flags = 0x02000004)
T2164 7432:278.724   CPU_ReadMem(4 bytes @ 0x40008308)
T2164 7432:279.052   Data:  00 00 01 00
T2164 7432:279.070 - 0.356ms returns 4 (0x4)
T2164 7432:279.085 JLINK_ReadMemEx(0x40008504, 0x4 Bytes, Flags = 0x02000004)
T2164 7432:279.096   CPU_ReadMem(4 bytes @ 0x40008504)
T2164 7432:279.458   Data:  00 00 00 00
T2164 7432:279.474 - 0.389ms returns 4 (0x4)
T2164 7432:279.489 JLINK_ReadMemEx(0x40008508, 0x4 Bytes, Flags = 0x02000004)
T2164 7432:279.500   CPU_ReadMem(4 bytes @ 0x40008508)
T2164 7432:279.811   Data:  03 00 00 00
T2164 7432:279.827 - 0.338ms returns 4 (0x4)
T2164 7432:279.840 JLINK_ReadMemEx(0x40008510, 0x4 Bytes, Flags = 0x02000004)
T2164 7432:279.851   CPU_ReadMem(4 bytes @ 0x40008510)
T2164 7432:280.164   Data:  00 00 00 00
T2164 7432:280.179 - 0.339ms returns 4 (0x4)
T2164 7432:280.193 JLINK_ReadMemEx(0x40008540, 0x14 Bytes, Flags = 0x02000004)
T2164 7432:280.203   CPU_ReadMem(20 bytes @ 0x40008540)
T2164 7432:280.719   Data:  FE FF FF FF 00 00 00 00 00 00 00 00 00 00 00 00 ...
T2164 7432:280.753 - 0.560ms returns 20 (0x14)
T2164 7432:280.766 JLINK_ReadMemEx(0x40008554, 0x4 Bytes, Flags = 0x02000004)
T2164 7432:280.776   CPU_ReadMem(4 bytes @ 0x40008554)
T2164 7432:281.089   Data:  00 00 00 00
T2164 7432:281.104 - 0.338ms returns 4 (0x4)
T2164 7432:281.414 JLINK_ReadMemEx(0x50000504, 0x20 Bytes, Flags = 0x02000004)
T2164 7432:281.428   CPU_ReadMem(32 bytes @ 0x50000504)
T2164 7432:282.006   Data:  00 C0 01 00 00 C0 01 00 00 C0 01 00 00 D8 05 03 ...
T2164 7432:282.040 - 0.625ms returns 32 (0x20)
T2164 7432:282.053 JLINK_ReadMemEx(0x50000524, 0x4 Bytes, Flags = 0x02000004)
T2164 7432:282.064   CPU_ReadMem(4 bytes @ 0x50000524)
T2164 7432:282.445   Data:  00 00 00 00
T2164 7432:282.462 - 0.409ms returns 4 (0x4)
T2164 7432:282.477 JLINK_ReadMemEx(0x50000700, 0x7C Bytes, Flags = 0x02000004)
T2164 7432:282.488   CPU_ReadMem(124 bytes @ 0x50000700)
T2164 7432:283.820   Data:  02 00 00 00 02 00 00 00 02 00 00 00 02 00 00 00 ...
T2164 7432:283.838 - 1.361ms returns 124 (0x7C)
T2164 7432:283.852 JLINK_ReadMemEx(0x5000077C, 0x4 Bytes, Flags = 0x02000004)
T2164 7432:283.864   CPU_ReadMem(4 bytes @ 0x5000077C)
T2164 7432:284.229   Data:  02 00 00 00
T2164 7432:284.246 - 0.394ms returns 4 (0x4)
T2C4C 7432:286.125 JLINK_IsHalted()
T2C4C 7432:286.626 - 0.501ms returns FALSE
T2C4C 7432:387.701 JLINK_HasError()
T2C4C 7432:387.785 JLINK_IsHalted()
T2C4C 7432:388.445 - 0.658ms returns FALSE
T2C4C 7432:489.329 JLINK_HasError()
T2C4C 7432:489.393 JLINK_IsHalted()
T2C4C 7432:489.943 - 0.548ms returns FALSE
T2C4C 7432:590.463 JLINK_HasError()
T2C4C 7432:590.540 JLINK_IsHalted()
T2C4C 7432:591.183 - 0.641ms returns FALSE
T2C4C 7432:691.850 JLINK_HasError()
T2C4C 7432:691.933 JLINK_IsHalted()
T2C4C 7432:692.603 - 0.668ms returns FALSE
T2C4C 7432:793.053 JLINK_HasError()
T2C4C 7432:793.129 JLINK_HasError()
T2C4C 7432:793.155 JLINK_ReadMemU32(0xE0001004, 0x1 Items)
T2C4C 7432:793.187   Data:  B3 5C 53 02
T2C4C 7432:793.199   Debug reg: DWT_CYCCNT
T2C4C 7432:793.211 - 0.056ms returns 1 (0x1)
